[2025-Jul-01 17:53:53] [debug] --------------------------------------------------------------------------------
[2025-Jul-01 17:53:53] [debug] C:\Program Files\Nordic Semiconductor\nrf-command-line-tools\bin\nrfjprog.exe --reset --log 
[2025-Jul-01 17:53:53] [debug] nrfjprog version 10.24.2 external
[2025-Jul-01 17:53:53] [debug] --------------------------------------------------------------------------------
[2025-Jul-01 17:53:53] [ info] Load library at C:\Program Files\Nordic Semiconductor\nrf-command-line-tools\bin\nrfjprog.dll.
[2025-Jul-01 17:53:53] [ info] Library loaded, loading member functions.
[2025-Jul-01 17:53:53] [ info] Member functions succesfully loaded.
[2025-Jul-01 17:53:53] [debug] [ Client] - open
[2025-Jul-01 17:53:53] [debug] [ Client] - start
[2025-Jul-01 17:53:53] [ info] [ Client] - stdout: Jlinkarm nRF Worker ready. Handling sequence 0ec1bd31-f982-498e-bfe3-5149eb79e856.
[2025-Jul-01 17:53:53] [debug] [SeggerBackend] - Logger sink registered in Segger backend logger
[2025-Jul-01 17:53:53] [debug] [  JLink] - Logger sink registered in JLink logger
[2025-Jul-01 17:53:53] [debug] [  nRFXX] - open
[2025-Jul-01 17:53:53] [debug] [  nRFXX] - just_check_family
[2025-Jul-01 17:53:53] [debug] [SeggerBackend] - open_dll
[2025-Jul-01 17:53:53] [debug] [SeggerBackend] - No J-Link DLL path was provided. Attempting to auto detect.
[2025-Jul-01 17:53:53] [trace] [ Client] - Command open executed for 67 milliseconds with result 0
[2025-Jul-01 17:53:53] [debug] [ Client] - config
[2025-Jul-01 17:53:53] [trace] [ Client] - Command config executed for 16 milliseconds with result 0
[2025-Jul-01 17:53:53] [debug] [ Client] - enum_emu_snr
[2025-Jul-01 17:53:53] [ info] [SeggerBackend] - Load library at C:\Program Files\SEGGER\JLink_V818\JLink_x64.dll.
[2025-Jul-01 17:53:53] [ info] [SeggerBackend] - Library loaded, loading member functions.
[2025-Jul-01 17:53:53] [ info] [SeggerBackend] - Member functions succesfully loaded.
[2025-Jul-01 17:53:53] [debug] [SeggerBackend] - Set batch mode
[2025-Jul-01 17:53:53] [debug] [SeggerBackend] - dll_version
[2025-Jul-01 17:53:53] [ info] [SeggerBackend] - Segger dll version 8.18.  loaded.
[2025-Jul-01 17:53:53] [trace] [ Worker] - Command open executed for 5 milliseconds with result 0
[2025-Jul-01 17:53:53] [debug] [  nRFXX] - config
[2025-Jul-01 17:53:53] [debug] [SeggerBackend] - enum_emu_snr
[2025-Jul-01 17:53:53] [trace] [ Worker] - Command config executed for 3 milliseconds with result 0
[2025-Jul-01 17:53:53] [trace] [ Client] - Command enum_emu_con_info executed for 14 milliseconds with result 0
[2025-Jul-01 17:53:53] [debug] [ Client] - connect_to_emu_with_snr
[2025-Jul-01 17:53:53] [debug] [  nRFXX] - enum_emu_con_info
[2025-Jul-01 17:53:53] [debug] [SeggerBackend] - is_connected_to_emu
[2025-Jul-01 17:53:53] [debug] [SeggerBackend] - enum_emu_con_info
[2025-Jul-01 17:53:53] [debug] [SeggerBackend] - is_connected_to_emu
[2025-Jul-01 17:53:53] [trace] [ Worker] - Command enum_emu_con_info executed for 6 milliseconds with result 0
[2025-Jul-01 17:53:53] [debug] [  nRFXX] - connect_to_emu_with_snr
[2025-Jul-01 17:53:53] [debug] [SeggerBackend] - is_connected_to_emu
[2025-Jul-01 17:53:53] [debug] [SeggerBackend] - connect_to_emu_with_snr
[2025-Jul-01 17:53:53] [debug] [SeggerBackend] - is_connected_to_emu
[2025-Jul-01 17:53:53] [debug] [SeggerBackend] - ---just_enum_emu_snr
[2025-Jul-01 17:53:53] [debug] [SeggerBackend] - ---just_get_num_emus
[2025-Jul-01 17:53:53] [debug] [SeggerBackend] - ---just_connect_to_emu_with_snr
[2025-Jul-01 17:53:53] [debug] [SeggerBackend] - ---just_connect_to_emu_without_snr
[2025-Jul-01 17:53:53] [debug] [SeggerBackend] - Segger logging enabled.
[2025-Jul-01 17:53:53] [trace] [  JLink] - Firmware: J-Link OB-nRF5340-NordicSemi compiled Feb 11 2025 17:15:35
[2025-Jul-01 17:53:53] [trace] [  JLink] - Firmware: J-Link OB-nRF5340-NordicSemi compiled Feb 11 2025 17:15:35
[2025-Jul-01 17:53:53] [trace] [  JLink] - Hardware: V1.00
[2025-Jul-01 17:53:53] [trace] [  JLink] - S/N: 1050380798
[2025-Jul-01 17:53:53] [trace] [  JLink] - OEM: SEGGER
[2025-Jul-01 17:53:53] [trace] [  JLink] - Feature(s): RDI, FlashBP, FlashDL, JFlash, GDB
[2025-Jul-01 17:53:53] [trace] [  JLink] - Bootloader: 2021 May 18
[2025-Jul-01 17:53:53] [trace] [  JLink] - USB speed mode: Full speed (12 MBit/s)
[2025-Jul-01 17:53:53] [trace] [  JLink] - TELNET listener socket opened on port 19021
[2025-Jul-01 17:53:53] [trace] [  JLink] - WEBSRV WEBSRV_Init(): Starting webserver thread(s)
[2025-Jul-01 17:53:53] [trace] [  JLink] - WEBSRV Webserver running on local port 19080
[2025-Jul-01 17:53:53] [trace] [  JLink] - Looking for J-Link GUI Server exe at: C:\Program Files\SEGGER\JLink_V818\JLinkGUIServer.exe 
[2025-Jul-01 17:53:53] [trace] [  JLink] - Forking J-Link GUI Server: C:\Program Files\SEGGER\JLink_V818\JLinkGUIServer.exe 
[2025-Jul-01 17:53:53] [trace] [  JLink] - J-Link GUI Server info: "J-Link GUI server V8.18 " 
[2025-Jul-01 17:53:53] [trace] [ Client] - Command connect_to_emu_with_snr executed for 157 milliseconds with result 0
[2025-Jul-01 17:53:53] [debug] [ Client] - read_connected_emu_snr
[2025-Jul-01 17:53:53] [trace] [  JLink] - - 87.757ms returns "O.K."  
[2025-Jul-01 17:53:53] [trace] [  JLink] - JLINK_HasError()  
[2025-Jul-01 17:53:53] [trace] [  JLink] - JLINK_Lock()  
[2025-Jul-01 17:53:53] [trace] [  JLink] - JLINK_ExecCommand("SetRestartOnClose = 0", ...).   
[2025-Jul-01 17:53:53] [trace] [  JLink] - - 0.001ms returns 0x01  
[2025-Jul-01 17:53:53] [trace] [  JLink] - JLINK_HasError()  
[2025-Jul-01 17:53:53] [trace] [  JLink] - JLINK_ExecCommand("DisableFlashDL", ...).   
[2025-Jul-01 17:53:53] [trace] [  JLink] - - 0.001ms returns 0x00  
[2025-Jul-01 17:53:53] [trace] [  JLink] - JLINK_HasError()  
[2025-Jul-01 17:53:53] [trace] [  JLink] - JLINK_ExecCommand("ExcludeFlashCacheRange 0x0-0xFFFFFFFF", ...).   
[2025-Jul-01 17:53:53] [trace] [  JLink] - - 0.003ms returns 0x00  
[2025-Jul-01 17:53:53] [trace] [  JLink] - JLINK_HasError()  
[2025-Jul-01 17:53:53] [trace] [  JLink] - JLINK_SetHookUnsecureDialog  
[2025-Jul-01 17:53:53] [trace] [  JLink] - JLINK_SetHookUnsecureDialog(...)
[2025-Jul-01 17:53:53] [trace] [  JLink] - - 0.012ms returns 0  
[2025-Jul-01 17:53:53] [trace] [  JLink] - JLINK_HasError()  
[2025-Jul-01 17:53:53] [trace] [  JLink] - JLINK_TIF_Select(JLINKARM_TIF_SWD)  
[2025-Jul-01 17:53:53] [trace] [  JLink] - - 0.806ms returns 0x00  
[2025-Jul-01 17:53:53] [trace] [  JLink] - JLINK_HasError()  
[2025-Jul-01 17:53:53] [trace] [  JLink] - JLINK_GetSpeedInfo()  
[2025-Jul-01 17:53:53] [trace] [  JLink] - 128000000 Hz / n, n >= 64
[2025-Jul-01 17:53:53] [trace] [  JLink] - - 0.013ms   
[2025-Jul-01 17:53:53] [trace] [  JLink] - JLINK_HasError()  
[2025-Jul-01 17:53:53] [debug] [SeggerBackend] - Connected emulator supports SWD speeds up to 2000kHz
[2025-Jul-01 17:53:53] [trace] [  JLink] - JLINK_SetSpeed(2000)  
[2025-Jul-01 17:53:53] [trace] [  JLink] - - 0.113ms   
[2025-Jul-01 17:53:53] [trace] [  JLink] - JLINK_HasError()  
[2025-Jul-01 17:53:53] [trace] [  JLink] - JLINK_GetSpeed()  
[2025-Jul-01 17:53:53] [trace] [  JLink] - - 0.007ms returns 2000  
[2025-Jul-01 17:53:53] [trace] [  JLink] - JLINK_HasError()  
[2025-Jul-01 17:53:53] [debug] [SeggerBackend] - SWD clock set to 2000kHz
[2025-Jul-01 17:53:53] [trace] [  JLink] - JLINK_GetSN()  
[2025-Jul-01 17:53:53] [trace] [  JLink] - - 0.007ms returns 1050380798  
[2025-Jul-01 17:53:53] [trace] [  JLink] - JLINK_HasError()  
[2025-Jul-01 17:53:53] [trace] [  JLink] - - 0.006ms   
[2025-Jul-01 17:53:53] [debug] [  nRFXX] - read_device_family
[2025-Jul-01 17:53:53] [debug] [  nRFXX] - read_device_family
[2025-Jul-01 17:53:53] [debug] [SeggerBackend] - is_connected_to_emu
[2025-Jul-01 17:53:53] [trace] [  JLink] - JLINK_IsOpen()  
[2025-Jul-01 17:53:53] [trace] [  JLink] - - 0.004ms returns 0x01  
[2025-Jul-01 17:53:53] [trace] [  JLink] - JLINK_HasError()  
[2025-Jul-01 17:53:53] [trace] [  JLink] - JLINK_Lock()  
[2025-Jul-01 17:53:53] [debug] [SeggerBackend] - is_connected_to_emu
[2025-Jul-01 17:53:53] [debug] [SeggerBackend] - read_debug_port_idr
[2025-Jul-01 17:53:53] [debug] [SeggerBackend] - read_debug_port_register
[2025-Jul-01 17:53:53] [debug] [SeggerBackend] - ---just_read_debug_port_register
[2025-Jul-01 17:53:53] [debug] [SeggerBackend] - coresight_configure
[2025-Jul-01 17:53:53] [trace] [  JLink] - JLINK_GetHWStatus(...)  
[2025-Jul-01 17:53:53] [trace] [  JLink] - - 0.174ms returns 0  
[2025-Jul-01 17:53:53] [trace] [  JLink] - JLINK_HasError()  
[2025-Jul-01 17:53:53] [trace] [  JLink] - JLINK_CORESIGHT_Configure()  
[2025-Jul-01 17:53:53] [trace] [  JLink] - - 0.428ms returns 0  
[2025-Jul-01 17:53:53] [trace] [  JLink] - JLINK_HasError()  
[2025-Jul-01 17:53:53] [debug] [SeggerBackend] - read_debug_port_idr
[2025-Jul-01 17:53:53] [debug] [SeggerBackend] - read_debug_port_register
[2025-Jul-01 17:53:53] [debug] [SeggerBackend] - ---just_read_debug_port_register
[2025-Jul-01 17:53:53] [debug] [SeggerBackend] - ---just_select_debug_port_register
[2025-Jul-01 17:53:53] [debug] [SeggerBackend] - Select AP 255, DP Bank 0, AP Bank 255
[2025-Jul-01 17:53:53] [trace] [  JLink] - JLINK_CORESIGHT_WriteAPDPReg(DP reg 0x02, 0x00000000)  
[2025-Jul-01 17:53:53] [trace] [  JLink] - - 0.262ms returns 0  
[2025-Jul-01 17:53:53] [trace] [  JLink] - JLINK_HasError()  
[2025-Jul-01 17:53:53] [trace] [  JLink] - JLINK_CORESIGHT_ReadAPDPReg(DP reg 0x00)  
[2025-Jul-01 17:53:53] [trace] [  JLink] - Value=0x2BA01477
[2025-Jul-01 17:53:53] [trace] [  JLink] - - 0.318ms returns 0  
[2025-Jul-01 17:53:53] [trace] [  JLink] - JLINK_HasError()  
[2025-Jul-01 17:53:53] [debug] [SeggerBackend] - ---just_select_debug_port_register
[2025-Jul-01 17:53:53] [trace] [  JLink] - JLINK_CORESIGHT_ReadAPDPReg(DP reg 0x00)  
[2025-Jul-01 17:53:53] [trace] [  JLink] - Value=0x2BA01477
[2025-Jul-01 17:53:53] [trace] [  JLink] - - 0.427ms returns 0  
[2025-Jul-01 17:53:53] [trace] [  JLink] - JLINK_HasError()  
[2025-Jul-01 17:53:53] [ info] [  nRFXX] - Discovered device from family NRF52.
[2025-Jul-01 17:53:53] [trace] [  JLink] - - 0.055ms   
[2025-Jul-01 17:53:53] [debug] [SeggerBackend] - set_core_data
[2025-Jul-01 17:53:53] [debug] [SeggerBackend] - Set core data:
[2025-Jul-01 17:53:53] [debug] [SeggerBackend] -   Device ID: nRF52
[2025-Jul-01 17:53:53] [debug] [SeggerBackend] -   Expected core: 234881279
[2025-Jul-01 17:53:53] [debug] [SeggerBackend] -   Existing Expected core: 4294967295
[2025-Jul-01 17:53:53] [debug] [SeggerBackend] -   Coprocessor: APPLICATION
[2025-Jul-01 17:53:53] [debug] [SeggerBackend] -   AHB AP index: 0
[2025-Jul-01 17:53:53] [debug] [SeggerBackend] -   Core base address: 4294967295
[2025-Jul-01 17:53:53] [debug] [SeggerBackend] - ---set_coresight_ahb_ap_index
[2025-Jul-01 17:53:53] [trace] [  JLink] - JLINK_ExecCommand("CORESIGHT_SetIndexAHBAPToUse = 0", ...).   
[2025-Jul-01 17:53:53] [trace] [  JLink] - - 0.005ms returns 0x00  
[2025-Jul-01 17:53:53] [trace] [  JLink] - JLINK_HasError()  
[2025-Jul-01 17:53:53] [trace] [  JLink] - JLINK_ExecCommand("device = nRF52", ...).   
[2025-Jul-01 17:53:53] [trace] [  JLink] - Device "NRF52" selected.
[2025-Jul-01 17:53:53] [trace] [  JLink] - Device "NRF52" selected.
[2025-Jul-01 17:53:53] [trace] [  JLink] - - 1.756ms returns 0x00  
[2025-Jul-01 17:53:53] [trace] [  JLink] - JLINK_HasError()  
[2025-Jul-01 17:53:53] [trace] [ Worker] - Command connect_to_emu_with_snr executed for 143 milliseconds with result 0
[2025-Jul-01 17:53:53] [trace] [ Client] - Command read_connected_emu_snr executed for 16 milliseconds with result 0
[2025-Jul-01 17:53:53] [debug] [ Client] - read_device_family
[2025-Jul-01 17:53:53] [debug] [  nRF52] - read_connected_emu_snr
[2025-Jul-01 17:53:53] [debug] [SeggerBackend] - is_connected_to_emu
[2025-Jul-01 17:53:53] [trace] [  JLink] - JLINK_IsOpen()  
[2025-Jul-01 17:53:53] [trace] [  JLink] - - 0.011ms returns 0x01  
[2025-Jul-01 17:53:53] [trace] [  JLink] - JLINK_HasError()  
[2025-Jul-01 17:53:53] [trace] [  JLink] - JLINK_Lock()  
[2025-Jul-01 17:53:53] [debug] [SeggerBackend] - read_connected_emu_snr
[2025-Jul-01 17:53:53] [trace] [  JLink] - - 0.004ms   
[2025-Jul-01 17:53:53] [trace] [ Worker] - Command read_connected_emu_snr executed for 0 milliseconds with result 0
[2025-Jul-01 17:53:53] [trace] [ Client] - Command read_device_family executed for 0 milliseconds with result 0
[2025-Jul-01 17:53:53] [debug] [ Client] - select_family
[2025-Jul-01 17:53:53] [trace] [ Client] - Command select_family executed for 0 milliseconds with result 0
[2025-Jul-01 17:53:53] [debug] [ Client] - read_device_info
[2025-Jul-01 17:53:53] [debug] [  nRF52] - read_device_family
[2025-Jul-01 17:53:53] [trace] [ Worker] - Command read_device_family executed for 0 milliseconds with result 0
[2025-Jul-01 17:53:53] [debug] [SeggerBackend] - set_core_data
[2025-Jul-01 17:53:53] [debug] [SeggerBackend] - Set core data:
[2025-Jul-01 17:53:53] [debug] [SeggerBackend] -   Device ID: nRF52
[2025-Jul-01 17:53:53] [debug] [SeggerBackend] -   Expected core: 234881279
[2025-Jul-01 17:53:53] [debug] [SeggerBackend] -   Existing Expected core: 234881279
[2025-Jul-01 17:53:53] [debug] [SeggerBackend] -   Coprocessor: APPLICATION
[2025-Jul-01 17:53:53] [debug] [SeggerBackend] -   AHB AP index: 0
[2025-Jul-01 17:53:53] [debug] [SeggerBackend] -   Core base address: 4294967295
[2025-Jul-01 17:53:53] [trace] [ Worker] - Command select_family executed for 0 milliseconds with result 0
[2025-Jul-01 17:53:53] [debug] [  nRF52] - read_device_info
[2025-Jul-01 17:53:53] [debug] [SeggerBackend] - is_connected_to_emu
[2025-Jul-01 17:53:53] [trace] [  JLink] - JLINK_IsOpen()  
[2025-Jul-01 17:53:53] [trace] [  JLink] - - 0.020ms returns 0x01  
[2025-Jul-01 17:53:53] [trace] [  JLink] - JLINK_HasError()  
[2025-Jul-01 17:53:53] [trace] [  JLink] - JLINK_Lock()  
[2025-Jul-01 17:53:53] [debug] [  nRF52] - Just_read_device_version
[2025-Jul-01 17:53:53] [debug] [  nRF52] - Just_readback_status
[2025-Jul-01 17:53:53] [debug] [  nRF52] - Just_is_ctrl_ap_available
[2025-Jul-01 17:53:53] [debug] [SeggerBackend] - read_access_port_register
[2025-Jul-01 17:53:53] [debug] [SeggerBackend] - ---just_read_access_port_register
[2025-Jul-01 17:53:53] [debug] [SeggerBackend] - ---just_is_debug_region_powered
[2025-Jul-01 17:53:53] [debug] [SeggerBackend] - ---just_read_debug_port_register
[2025-Jul-01 17:53:53] [debug] [SeggerBackend] - ---just_select_debug_port_register
[2025-Jul-01 17:53:53] [debug] [SeggerBackend] - Select AP 255, DP Bank 0, AP Bank 255
[2025-Jul-01 17:53:53] [trace] [  JLink] - JLINK_CORESIGHT_WriteAPDPReg(DP reg 0x02, 0x00000000)  
[2025-Jul-01 17:53:53] [trace] [  JLink] - - 0.525ms returns 0  
[2025-Jul-01 17:53:53] [trace] [  JLink] - JLINK_HasError()  
[2025-Jul-01 17:53:53] [trace] [  JLink] - JLINK_CORESIGHT_ReadAPDPReg(DP reg 0x01)  
[2025-Jul-01 17:53:53] [trace] [  JLink] - Value=0xF0000040
[2025-Jul-01 17:53:53] [trace] [  JLink] - - 1.896ms returns 0  
[2025-Jul-01 17:53:53] [trace] [  JLink] - JLINK_HasError()  
[2025-Jul-01 17:53:53] [debug] [SeggerBackend] - ---just_select_access_port_register
[2025-Jul-01 17:53:53] [debug] [SeggerBackend] - Select AP 1, DP Bank 0, AP Bank 15
[2025-Jul-01 17:53:53] [trace] [  JLink] - JLINK_CORESIGHT_WriteAPDPReg(DP reg 0x02, 0x010000F0)  
[2025-Jul-01 17:53:53] [trace] [  JLink] - - 0.513ms returns 0  
[2025-Jul-01 17:53:53] [trace] [  JLink] - JLINK_HasError()  
[2025-Jul-01 17:53:53] [trace] [  JLink] - JLINK_CORESIGHT_ReadAPDPReg(AP reg 0x03)  
[2025-Jul-01 17:53:53] [trace] [  JLink] - Value=0x02880000
[2025-Jul-01 17:53:53] [trace] [  JLink] - - 0.488ms returns 0  
[2025-Jul-01 17:53:53] [trace] [  JLink] - JLINK_HasError()  
[2025-Jul-01 17:53:53] [debug] [SeggerBackend] - read_access_port_register
[2025-Jul-01 17:53:53] [debug] [SeggerBackend] - ---just_read_access_port_register
[2025-Jul-01 17:53:53] [debug] [SeggerBackend] - ---just_select_access_port_register
[2025-Jul-01 17:53:53] [trace] [  JLink] - JLINK_CORESIGHT_ReadAPDPReg(AP reg 0x03)  
[2025-Jul-01 17:53:53] [trace] [  JLink] - Value=0x02880000
[2025-Jul-01 17:53:53] [trace] [  JLink] - - 0.499ms returns 0  
[2025-Jul-01 17:53:53] [trace] [  JLink] - JLINK_HasError()  
[2025-Jul-01 17:53:53] [debug] [SeggerBackend] - read_access_port_register
[2025-Jul-01 17:53:53] [debug] [SeggerBackend] - ---just_read_access_port_register
[2025-Jul-01 17:53:53] [debug] [SeggerBackend] - ---just_select_access_port_register
[2025-Jul-01 17:53:53] [trace] [  JLink] - JLINK_CORESIGHT_ReadAPDPReg(AP reg 0x03)  
[2025-Jul-01 17:53:53] [trace] [  JLink] - Value=0x02880000
[2025-Jul-01 17:53:53] [trace] [  JLink] - - 0.595ms returns 0  
[2025-Jul-01 17:53:53] [trace] [  JLink] - JLINK_HasError()  
[2025-Jul-01 17:53:53] [debug] [SeggerBackend] - read_access_port_register
[2025-Jul-01 17:53:53] [debug] [SeggerBackend] - ---just_read_access_port_register
[2025-Jul-01 17:53:53] [debug] [SeggerBackend] - ---just_select_access_port_register
[2025-Jul-01 17:53:53] [trace] [  JLink] - JLINK_CORESIGHT_ReadAPDPReg(AP reg 0x03)  
[2025-Jul-01 17:53:53] [trace] [  JLink] - Value=0x02880000
[2025-Jul-01 17:53:53] [trace] [  JLink] - - 0.593ms returns 0  
[2025-Jul-01 17:53:53] [trace] [  JLink] - JLINK_HasError()  
[2025-Jul-01 17:53:53] [debug] [SeggerBackend] - read_access_port_register
[2025-Jul-01 17:53:53] [debug] [SeggerBackend] - ---just_read_access_port_register
[2025-Jul-01 17:53:53] [debug] [SeggerBackend] - ---just_select_access_port_register
[2025-Jul-01 17:53:53] [debug] [SeggerBackend] - Select AP 1, DP Bank 0, AP Bank 0
[2025-Jul-01 17:53:53] [trace] [  JLink] - JLINK_CORESIGHT_WriteAPDPReg(DP reg 0x02, 0x01000000)  
[2025-Jul-01 17:53:53] [trace] [  JLink] - - 0.553ms returns 0  
[2025-Jul-01 17:53:53] [trace] [  JLink] - JLINK_HasError()  
[2025-Jul-01 17:53:53] [trace] [  JLink] - JLINK_CORESIGHT_ReadAPDPReg(AP reg 0x03)  
[2025-Jul-01 17:53:53] [trace] [  JLink] - Value=0x00000001
[2025-Jul-01 17:53:53] [trace] [  JLink] - - 2.526ms returns 0  
[2025-Jul-01 17:53:53] [trace] [  JLink] - JLINK_HasError()  
[2025-Jul-01 17:53:53] [debug] [SeggerBackend] - read_access_port_register
[2025-Jul-01 17:53:53] [debug] [SeggerBackend] - ---just_read_access_port_register
[2025-Jul-01 17:53:53] [debug] [SeggerBackend] - ---just_select_access_port_register
[2025-Jul-01 17:53:53] [trace] [  JLink] - JLINK_CORESIGHT_ReadAPDPReg(AP reg 0x03)  
[2025-Jul-01 17:53:53] [trace] [  JLink] - Value=0x00000001
[2025-Jul-01 17:53:53] [trace] [  JLink] - - 0.280ms returns 0  
[2025-Jul-01 17:53:53] [trace] [  JLink] - JLINK_HasError()  
[2025-Jul-01 17:53:53] [debug] [SeggerBackend] - read_access_port_register
[2025-Jul-01 17:53:53] [debug] [SeggerBackend] - ---just_read_access_port_register
[2025-Jul-01 17:53:53] [debug] [SeggerBackend] - ---just_select_access_port_register
[2025-Jul-01 17:53:53] [trace] [  JLink] - JLINK_CORESIGHT_ReadAPDPReg(AP reg 0x03)  
[2025-Jul-01 17:53:53] [trace] [  JLink] - Value=0x00000001
[2025-Jul-01 17:53:53] [trace] [  JLink] - - 0.274ms returns 0  
[2025-Jul-01 17:53:53] [trace] [  JLink] - JLINK_HasError()  
[2025-Jul-01 17:53:53] [debug] [SeggerBackend] - read_access_port_register
[2025-Jul-01 17:53:53] [debug] [SeggerBackend] - ---just_read_access_port_register
[2025-Jul-01 17:53:53] [debug] [SeggerBackend] - ---just_select_access_port_register
[2025-Jul-01 17:53:53] [trace] [  JLink] - JLINK_CORESIGHT_ReadAPDPReg(AP reg 0x03)  
[2025-Jul-01 17:53:53] [trace] [  JLink] - Value=0x00000001
[2025-Jul-01 17:53:53] [trace] [  JLink] - - 0.280ms returns 0  
[2025-Jul-01 17:53:53] [trace] [  JLink] - JLINK_HasError()  
[2025-Jul-01 17:53:53] [ info] [  nRF52] - Protection status read as NONE
[2025-Jul-01 17:53:53] [debug] [SeggerBackend] - read_u32
[2025-Jul-01 17:53:53] [debug] [SeggerBackend] - ---just_connect_to_device
[2025-Jul-01 17:53:53] [debug] [SeggerBackend] - is_connected_to_device
[2025-Jul-01 17:53:53] [debug] [SeggerBackend] - ---set_coresight_ahb_ap_index
[2025-Jul-01 17:53:53] [trace] [  JLink] - JLINK_ExecCommand("CORESIGHT_SetIndexAHBAPToUse = 0", ...).   
[2025-Jul-01 17:53:53] [trace] [  JLink] - - 0.002ms returns 0x00  
[2025-Jul-01 17:53:53] [trace] [  JLink] - JLINK_HasError()  
[2025-Jul-01 17:53:53] [trace] [  JLink] - JLINK_ExecCommand("device = nRF52", ...).   
[2025-Jul-01 17:53:53] [trace] [  JLink] - Device "NRF52" selected.
[2025-Jul-01 17:53:53] [trace] [  JLink] - Device "NRF52" selected.
[2025-Jul-01 17:53:53] [trace] [  JLink] - - 2.214ms returns 0x00  
[2025-Jul-01 17:53:53] [trace] [  JLink] - JLINK_HasError()  
[2025-Jul-01 17:53:53] [trace] [  JLink] - JLINK_Connect()  
[2025-Jul-01 17:53:53] [trace] [  JLink] - InitTarget() start
[2025-Jul-01 17:53:53] [trace] [  JLink] - InitTarget() start
[2025-Jul-01 17:53:53] [trace] [  JLink] -  J-Link Script File: Executing InitTarget() 
[2025-Jul-01 17:53:53] [trace] [  JLink] - InitTarget() end - Took 3.16ms
[2025-Jul-01 17:53:53] [trace] [  JLink] - InitTarget() end - Took 3.16ms
[2025-Jul-01 17:53:53] [trace] [  JLink] - Found SW-DP with ID 0x2BA01477
[2025-Jul-01 17:53:53] [trace] [  JLink] - Found SW-DP with ID 0x2BA01477
[2025-Jul-01 17:53:53] [trace] [  JLink] - DPIDR: 0x2BA01477
[2025-Jul-01 17:53:53] [trace] [  JLink] - DPIDR: 0x2BA01477
[2025-Jul-01 17:53:53] [trace] [  JLink] - CoreSight SoC-400 or earlier
[2025-Jul-01 17:53:53] [trace] [  JLink] - CoreSight SoC-400 or earlier
[2025-Jul-01 17:53:53] [trace] [  JLink] - AP map detection skipped. Manually configured AP map found.
[2025-Jul-01 17:53:53] [trace] [  JLink] - AP map detection skipped. Manually configured AP map found.
[2025-Jul-01 17:53:53] [trace] [  JLink] - AP[0]: AHB-AP (IDR: Not set, ADDR: 0x00000000)
[2025-Jul-01 17:53:53] [trace] [  JLink] - AP[0]: AHB-AP (IDR: Not set, ADDR: 0x00000000)
[2025-Jul-01 17:53:53] [trace] [  JLink] - AP[0]: Core found
[2025-Jul-01 17:53:53] [trace] [  JLink] - AP[0]: Core found
[2025-Jul-01 17:53:53] [trace] [  JLink] - AP[0]: AHB-AP ROM base: 0xE00FF000
[2025-Jul-01 17:53:53] [trace] [  JLink] - AP[0]: AHB-AP ROM base: 0xE00FF000
[2025-Jul-01 17:53:53] [trace] [  JLink] - CPUID register: 0x410FC241. Implementer code: 0x41 (ARM)
[2025-Jul-01 17:53:53] [trace] [  JLink] - CPUID register: 0x410FC241. Implementer code: 0x41 (ARM)
[2025-Jul-01 17:53:53] [trace] [  JLink] - Found Cortex-M4 r0p1, Little endian.
[2025-Jul-01 17:53:53] [trace] [  JLink] - Found Cortex-M4 r0p1, Little endian.
[2025-Jul-01 17:53:53] [trace] [  JLink] - -- Max. mem block: 0x0003C7B8
[2025-Jul-01 17:53:53] [trace] [  JLink] - CPU_ReadMem(4 bytes @ 0xE000EDF0)
[2025-Jul-01 17:53:53] [trace] [  JLink] - CPU_WriteMem(4 bytes @ 0xE000EDF0)
[2025-Jul-01 17:53:53] [trace] [  JLink] - CPU_ReadMem(4 bytes @ 0xE0002000)
[2025-Jul-01 17:53:53] [trace] [  JLink] - FPUnit: 6 code (BP) slots and 2 literal slots
[2025-Jul-01 17:53:53] [trace] [  JLink] - FPUnit: 6 code (BP) slots and 2 literal slots
[2025-Jul-01 17:53:53] [trace] [  JLink] - CPU_ReadMem(4 bytes @ 0xE000EDFC)
[2025-Jul-01 17:53:53] [trace] [  JLink] - CPU_WriteMem(4 bytes @ 0xE000EDFC)
[2025-Jul-01 17:53:53] [trace] [  JLink] - CPU_ReadMem(4 bytes @ 0xE0001000)
[2025-Jul-01 17:53:53] [trace] [  JLink] - CPU_WriteMem(4 bytes @ 0xE0001000)
[2025-Jul-01 17:53:53] [trace] [  JLink] - CPU_ReadMem(4 bytes @ 0xE000ED88)
[2025-Jul-01 17:53:53] [trace] [  JLink] - CPU_WriteMem(4 bytes @ 0xE000ED88)
[2025-Jul-01 17:53:53] [trace] [  JLink] - CPU_ReadMem(4 bytes @ 0xE000ED88)
[2025-Jul-01 17:53:53] [trace] [  JLink] - CPU_WriteMem(4 bytes @ 0xE000ED88)
[2025-Jul-01 17:53:53] [trace] [  JLink] - CoreSight components:
[2025-Jul-01 17:53:53] [trace] [  JLink] - CoreSight components:
[2025-Jul-01 17:53:53] [trace] [  JLink] - ROMTbl[0] @ E00FF000
[2025-Jul-01 17:53:53] [trace] [  JLink] - ROMTbl[0] @ E00FF000
[2025-Jul-01 17:53:53] [trace] [  JLink] - CPU_ReadMem(64 bytes @ 0xE00FF000)
[2025-Jul-01 17:53:53] [trace] [  JLink] - CPU_ReadMem(32 bytes @ 0xE000EFE0)
[2025-Jul-01 17:53:53] [trace] [  JLink] - [0][0]: E000E000 CID B105E00D PID 000BB00C SCS-M7
[2025-Jul-01 17:53:53] [trace] [  JLink] - [0][0]: E000E000 CID B105E00D PID 000BB00C SCS-M7
[2025-Jul-01 17:53:53] [trace] [  JLink] - CPU_ReadMem(32 bytes @ 0xE0001FE0)
[2025-Jul-01 17:53:53] [trace] [ Client] - Command read_device_info executed for 46 milliseconds with result 0
[2025-Jul-01 17:53:53] [debug] [ Client] - read_memory_descriptors
[2025-Jul-01 17:53:53] [trace] [  JLink] - [0][1]: E0001000 CID B105E00D PID 003BB002 DWT
[2025-Jul-01 17:53:53] [trace] [  JLink] - [0][1]: E0001000 CID B105E00D PID 003BB002 DWT
[2025-Jul-01 17:53:53] [trace] [  JLink] - CPU_ReadMem(32 bytes @ 0xE0002FE0)
[2025-Jul-01 17:53:53] [trace] [  JLink] - [0][2]: E0002000 CID B105E00D PID 002BB003 FPB
[2025-Jul-01 17:53:53] [trace] [  JLink] - [0][2]: E0002000 CID B105E00D PID 002BB003 FPB
[2025-Jul-01 17:53:53] [trace] [  JLink] - CPU_ReadMem(32 bytes @ 0xE0000FE0)
[2025-Jul-01 17:53:53] [trace] [  JLink] - [0][3]: E0000000 CID B105E00D PID 003BB001 ITM
[2025-Jul-01 17:53:53] [trace] [  JLink] - [0][3]: E0000000 CID B105E00D PID 003BB001 ITM
[2025-Jul-01 17:53:53] [trace] [  JLink] - CPU_ReadMem(32 bytes @ 0xE0040FE0)
[2025-Jul-01 17:53:53] [trace] [  JLink] - [0][4]: E0040000 CID B105900D PID 000BB9A1 TPIU
[2025-Jul-01 17:53:53] [trace] [  JLink] - [0][4]: E0040000 CID B105900D PID 000BB9A1 TPIU
[2025-Jul-01 17:53:53] [trace] [  JLink] - CPU_ReadMem(32 bytes @ 0xE0041FE0)
[2025-Jul-01 17:53:53] [trace] [  JLink] - [0][5]: E0041000 CID B105900D PID 000BB925 ETM
[2025-Jul-01 17:53:53] [trace] [  JLink] - [0][5]: E0041000 CID B105900D PID 000BB925 ETM
[2025-Jul-01 17:53:53] [trace] [  JLink] - - 22.682ms returns 0x00  
[2025-Jul-01 17:53:53] [trace] [  JLink] - JLINK_HasError()  
[2025-Jul-01 17:53:53] [trace] [  JLink] - JLINK_CORE_GetFound()  
[2025-Jul-01 17:53:53] [trace] [  JLink] - - 0.008ms returns 0xE0000FF  
[2025-Jul-01 17:53:53] [debug] [SeggerBackend] - ---just_read_u32
[2025-Jul-01 17:53:53] [debug] [SeggerBackend] - ---just_invalidate_cache
[2025-Jul-01 17:53:53] [trace] [  JLink] - JLINK_ExecCommand("InvalidateCache", ...).   
[2025-Jul-01 17:53:53] [trace] [  JLink] - - 0.021ms returns 0x00  
[2025-Jul-01 17:53:53] [trace] [  JLink] - JLINK_HasError()  
[2025-Jul-01 17:53:53] [trace] [  JLink] - JLINK_ReadMemU32(0x10000130, 0x1 Items)  
[2025-Jul-01 17:53:53] [trace] [  JLink] - CPU_ReadMem(4 bytes @ 0x10000130)
[2025-Jul-01 17:53:53] [trace] [  JLink] - Data:  06 00 00 00
[2025-Jul-01 17:53:53] [trace] [  JLink] - - 0.478ms returns 1 (0x1)  
[2025-Jul-01 17:53:53] [trace] [  JLink] - JLINK_HasError()  
[2025-Jul-01 17:53:53] [debug] [SeggerBackend] - read_u32
[2025-Jul-01 17:53:53] [debug] [SeggerBackend] - ---just_connect_to_device
[2025-Jul-01 17:53:53] [debug] [SeggerBackend] - is_connected_to_device
[2025-Jul-01 17:53:53] [debug] [SeggerBackend] - ---just_read_u32
[2025-Jul-01 17:53:53] [debug] [SeggerBackend] - ---just_invalidate_cache
[2025-Jul-01 17:53:53] [trace] [  JLink] - JLINK_ExecCommand("InvalidateCache", ...).   
[2025-Jul-01 17:53:53] [trace] [  JLink] - - 0.003ms returns 0x00  
[2025-Jul-01 17:53:53] [trace] [  JLink] - JLINK_HasError()  
[2025-Jul-01 17:53:53] [trace] [  JLink] - JLINK_ReadMemU32(0x10000134, 0x1 Items)  
[2025-Jul-01 17:53:53] [trace] [  JLink] - CPU_ReadMem(4 bytes @ 0x10000134)
[2025-Jul-01 17:53:53] [trace] [  JLink] - Data:  07 00 00 00
[2025-Jul-01 17:53:53] [trace] [  JLink] - - 0.418ms returns 1 (0x1)  
[2025-Jul-01 17:53:53] [trace] [  JLink] - JLINK_HasError()  
[2025-Jul-01 17:53:53] [debug] [  nRF52] - Just_decode_device_version
[2025-Jul-01 17:53:53] [debug] [SeggerBackend] - read_u32
[2025-Jul-01 17:53:53] [debug] [SeggerBackend] - ---just_connect_to_device
[2025-Jul-01 17:53:53] [debug] [SeggerBackend] - is_connected_to_device
[2025-Jul-01 17:53:53] [debug] [SeggerBackend] - ---just_read_u32
[2025-Jul-01 17:53:53] [debug] [SeggerBackend] - ---just_invalidate_cache
[2025-Jul-01 17:53:53] [trace] [  JLink] - JLINK_ExecCommand("InvalidateCache", ...).   
[2025-Jul-01 17:53:53] [trace] [  JLink] - - 0.003ms returns 0x00  
[2025-Jul-01 17:53:53] [trace] [  JLink] - JLINK_HasError()  
[2025-Jul-01 17:53:53] [trace] [  JLink] - JLINK_ReadMemU32(0x10000110, 0x1 Items)  
[2025-Jul-01 17:53:53] [trace] [  JLink] - CPU_ReadMem(4 bytes @ 0x10000110)
[2025-Jul-01 17:53:53] [trace] [  JLink] - Data:  00 02 00 00
[2025-Jul-01 17:53:53] [trace] [  JLink] - - 0.388ms returns 1 (0x1)  
[2025-Jul-01 17:53:53] [trace] [  JLink] - JLINK_HasError()  
[2025-Jul-01 17:53:53] [debug] [  nRF52] - Device identified as NRF52832_xxAA_REV3
[2025-Jul-01 17:53:53] [trace] [  JLink] - - 0.027ms   
[2025-Jul-01 17:53:53] [trace] [ Worker] - Command read_device_info executed for 36 milliseconds with result 0
[2025-Jul-01 17:53:53] [trace] [ Client] - Command read_memory_descriptors executed for 15 milliseconds with result 0
[2025-Jul-01 17:53:53] [debug] [ Client] - read_memory_descriptors
[2025-Jul-01 17:53:53] [debug] [  nRF52] - read_memory_descriptors
[2025-Jul-01 17:53:53] [debug] [SeggerBackend] - is_connected_to_emu
[2025-Jul-01 17:53:53] [trace] [  JLink] - JLINK_IsOpen()  
[2025-Jul-01 17:53:53] [trace] [  JLink] - - 0.025ms returns 0x01  
[2025-Jul-01 17:53:53] [trace] [  JLink] - JLINK_HasError()  
[2025-Jul-01 17:53:53] [trace] [  JLink] - JLINK_Lock()  
[2025-Jul-01 17:53:53] [debug] [  nRF52] - Just_read_memory_descriptors
[2025-Jul-01 17:53:53] [debug] [  nRF52] - Just_readback_status
[2025-Jul-01 17:53:53] [debug] [  nRF52] - Just_is_ctrl_ap_available
[2025-Jul-01 17:53:53] [debug] [SeggerBackend] - read_access_port_register
[2025-Jul-01 17:53:53] [debug] [SeggerBackend] - ---just_read_access_port_register
[2025-Jul-01 17:53:53] [debug] [SeggerBackend] - ---just_is_debug_region_powered
[2025-Jul-01 17:53:53] [debug] [SeggerBackend] - ---just_read_debug_port_register
[2025-Jul-01 17:53:53] [debug] [SeggerBackend] - ---just_select_debug_port_register
[2025-Jul-01 17:53:53] [debug] [SeggerBackend] - Select AP 255, DP Bank 0, AP Bank 255
[2025-Jul-01 17:53:53] [trace] [  JLink] - JLINK_CORESIGHT_WriteAPDPReg(DP reg 0x02, 0x00000000)  
[2025-Jul-01 17:53:53] [trace] [  JLink] - - 0.543ms returns 0  
[2025-Jul-01 17:53:53] [trace] [  JLink] - JLINK_HasError()  
[2025-Jul-01 17:53:53] [trace] [  JLink] - JLINK_CORESIGHT_ReadAPDPReg(DP reg 0x01)  
[2025-Jul-01 17:53:53] [trace] [  JLink] - Value=0xF0000040
[2025-Jul-01 17:53:53] [trace] [  JLink] - - 0.568ms returns 0  
[2025-Jul-01 17:53:53] [trace] [  JLink] - JLINK_HasError()  
[2025-Jul-01 17:53:53] [debug] [SeggerBackend] - ---just_select_access_port_register
[2025-Jul-01 17:53:53] [debug] [SeggerBackend] - Select AP 1, DP Bank 0, AP Bank 15
[2025-Jul-01 17:53:53] [trace] [  JLink] - JLINK_CORESIGHT_WriteAPDPReg(DP reg 0x02, 0x010000F0)  
[2025-Jul-01 17:53:53] [trace] [  JLink] - - 1.601ms returns 0  
[2025-Jul-01 17:53:53] [trace] [  JLink] - JLINK_HasError()  
[2025-Jul-01 17:53:53] [trace] [  JLink] - JLINK_CORESIGHT_ReadAPDPReg(AP reg 0x03)  
[2025-Jul-01 17:53:53] [trace] [  JLink] - Value=0x02880000
[2025-Jul-01 17:53:53] [trace] [  JLink] - - 0.536ms returns 0  
[2025-Jul-01 17:53:53] [trace] [  JLink] - JLINK_HasError()  
[2025-Jul-01 17:53:53] [debug] [SeggerBackend] - read_access_port_register
[2025-Jul-01 17:53:53] [debug] [SeggerBackend] - ---just_read_access_port_register
[2025-Jul-01 17:53:53] [debug] [SeggerBackend] - ---just_select_access_port_register
[2025-Jul-01 17:53:53] [trace] [  JLink] - JLINK_CORESIGHT_ReadAPDPReg(AP reg 0x03)  
[2025-Jul-01 17:53:53] [trace] [  JLink] - Value=0x02880000
[2025-Jul-01 17:53:53] [trace] [  JLink] - - 0.453ms returns 0  
[2025-Jul-01 17:53:53] [trace] [  JLink] - JLINK_HasError()  
[2025-Jul-01 17:53:53] [debug] [SeggerBackend] - read_access_port_register
[2025-Jul-01 17:53:53] [debug] [SeggerBackend] - ---just_read_access_port_register
[2025-Jul-01 17:53:53] [debug] [SeggerBackend] - ---just_select_access_port_register
[2025-Jul-01 17:53:53] [trace] [  JLink] - JLINK_CORESIGHT_ReadAPDPReg(AP reg 0x03)  
[2025-Jul-01 17:53:53] [trace] [  JLink] - Value=0x02880000
[2025-Jul-01 17:53:53] [trace] [  JLink] - - 0.376ms returns 0  
[2025-Jul-01 17:53:53] [trace] [  JLink] - JLINK_HasError()  
[2025-Jul-01 17:53:53] [debug] [SeggerBackend] - read_access_port_register
[2025-Jul-01 17:53:53] [debug] [SeggerBackend] - ---just_read_access_port_register
[2025-Jul-01 17:53:53] [debug] [SeggerBackend] - ---just_select_access_port_register
[2025-Jul-01 17:53:53] [trace] [  JLink] - JLINK_CORESIGHT_ReadAPDPReg(AP reg 0x03)  
[2025-Jul-01 17:53:53] [trace] [  JLink] - Value=0x02880000
[2025-Jul-01 17:53:53] [trace] [  JLink] - - 0.449ms returns 0  
[2025-Jul-01 17:53:53] [trace] [  JLink] - JLINK_HasError()  
[2025-Jul-01 17:53:53] [debug] [SeggerBackend] - read_access_port_register
[2025-Jul-01 17:53:53] [debug] [SeggerBackend] - ---just_read_access_port_register
[2025-Jul-01 17:53:53] [debug] [SeggerBackend] - ---just_select_access_port_register
[2025-Jul-01 17:53:53] [debug] [SeggerBackend] - Select AP 1, DP Bank 0, AP Bank 0
[2025-Jul-01 17:53:53] [trace] [  JLink] - JLINK_CORESIGHT_WriteAPDPReg(DP reg 0x02, 0x01000000)  
[2025-Jul-01 17:53:53] [trace] [  JLink] - - 0.317ms returns 0  
[2025-Jul-01 17:53:53] [trace] [  JLink] - JLINK_HasError()  
[2025-Jul-01 17:53:53] [trace] [  JLink] - JLINK_CORESIGHT_ReadAPDPReg(AP reg 0x03)  
[2025-Jul-01 17:53:53] [trace] [  JLink] - Value=0x00000001
[2025-Jul-01 17:53:53] [trace] [  JLink] - - 0.368ms returns 0  
[2025-Jul-01 17:53:53] [trace] [  JLink] - JLINK_HasError()  
[2025-Jul-01 17:53:53] [debug] [SeggerBackend] - read_access_port_register
[2025-Jul-01 17:53:53] [debug] [SeggerBackend] - ---just_read_access_port_register
[2025-Jul-01 17:53:53] [debug] [SeggerBackend] - ---just_select_access_port_register
[2025-Jul-01 17:53:53] [trace] [  JLink] - JLINK_CORESIGHT_ReadAPDPReg(AP reg 0x03)  
[2025-Jul-01 17:53:53] [trace] [  JLink] - Value=0x00000001
[2025-Jul-01 17:53:53] [trace] [  JLink] - - 0.389ms returns 0  
[2025-Jul-01 17:53:53] [trace] [  JLink] - JLINK_HasError()  
[2025-Jul-01 17:53:53] [debug] [SeggerBackend] - read_access_port_register
[2025-Jul-01 17:53:53] [debug] [SeggerBackend] - ---just_read_access_port_register
[2025-Jul-01 17:53:53] [debug] [SeggerBackend] - ---just_select_access_port_register
[2025-Jul-01 17:53:53] [trace] [  JLink] - JLINK_CORESIGHT_ReadAPDPReg(AP reg 0x03)  
[2025-Jul-01 17:53:53] [trace] [  JLink] - Value=0x00000001
[2025-Jul-01 17:53:53] [trace] [  JLink] - - 0.289ms returns 0  
[2025-Jul-01 17:53:53] [trace] [  JLink] - JLINK_HasError()  
[2025-Jul-01 17:53:53] [debug] [SeggerBackend] - read_access_port_register
[2025-Jul-01 17:53:53] [debug] [SeggerBackend] - ---just_read_access_port_register
[2025-Jul-01 17:53:53] [debug] [SeggerBackend] - ---just_select_access_port_register
[2025-Jul-01 17:53:53] [trace] [  JLink] - JLINK_CORESIGHT_ReadAPDPReg(AP reg 0x03)  
[2025-Jul-01 17:53:53] [trace] [  JLink] - Value=0x00000001
[2025-Jul-01 17:53:53] [trace] [  JLink] - - 0.287ms returns 0  
[2025-Jul-01 17:53:53] [trace] [  JLink] - JLINK_HasError()  
[2025-Jul-01 17:53:53] [ info] [  nRF52] - Protection status read as NONE
[2025-Jul-01 17:53:53] [debug] [  nRF52] - update_device_memory_list
[2025-Jul-01 17:53:53] [debug] [  nRF52] - Just_read_device_version
[2025-Jul-01 17:53:53] [debug] [  nRF52] - Just_readback_status
[2025-Jul-01 17:53:53] [debug] [  nRF52] - Just_is_ctrl_ap_available
[2025-Jul-01 17:53:53] [debug] [SeggerBackend] - read_access_port_register
[2025-Jul-01 17:53:53] [debug] [SeggerBackend] - ---just_read_access_port_register
[2025-Jul-01 17:53:53] [debug] [SeggerBackend] - ---just_select_access_port_register
[2025-Jul-01 17:53:53] [debug] [SeggerBackend] - Select AP 1, DP Bank 0, AP Bank 15
[2025-Jul-01 17:53:53] [trace] [  JLink] - JLINK_CORESIGHT_WriteAPDPReg(DP reg 0x02, 0x010000F0)  
[2025-Jul-01 17:53:53] [trace] [  JLink] - - 0.227ms returns 0  
[2025-Jul-01 17:53:53] [trace] [  JLink] - JLINK_HasError()  
[2025-Jul-01 17:53:53] [trace] [  JLink] - JLINK_CORESIGHT_ReadAPDPReg(AP reg 0x03)  
[2025-Jul-01 17:53:53] [trace] [  JLink] - Value=0x02880000
[2025-Jul-01 17:53:53] [trace] [  JLink] - - 0.286ms returns 0  
[2025-Jul-01 17:53:53] [trace] [  JLink] - JLINK_HasError()  
[2025-Jul-01 17:53:53] [debug] [SeggerBackend] - read_access_port_register
[2025-Jul-01 17:53:53] [debug] [SeggerBackend] - ---just_read_access_port_register
[2025-Jul-01 17:53:53] [debug] [SeggerBackend] - ---just_select_access_port_register
[2025-Jul-01 17:53:53] [trace] [  JLink] - JLINK_CORESIGHT_ReadAPDPReg(AP reg 0x03)  
[2025-Jul-01 17:53:53] [trace] [  JLink] - Value=0x02880000
[2025-Jul-01 17:53:53] [trace] [  JLink] - - 0.280ms returns 0  
[2025-Jul-01 17:53:53] [trace] [  JLink] - JLINK_HasError()  
[2025-Jul-01 17:53:53] [debug] [SeggerBackend] - read_access_port_register
[2025-Jul-01 17:53:53] [debug] [SeggerBackend] - ---just_read_access_port_register
[2025-Jul-01 17:53:53] [debug] [SeggerBackend] - ---just_select_access_port_register
[2025-Jul-01 17:53:53] [trace] [  JLink] - JLINK_CORESIGHT_ReadAPDPReg(AP reg 0x03)  
[2025-Jul-01 17:53:53] [trace] [  JLink] - Value=0x02880000
[2025-Jul-01 17:53:53] [trace] [  JLink] - - 0.329ms returns 0  
[2025-Jul-01 17:53:53] [trace] [  JLink] - JLINK_HasError()  
[2025-Jul-01 17:53:53] [debug] [SeggerBackend] - read_access_port_register
[2025-Jul-01 17:53:53] [debug] [SeggerBackend] - ---just_read_access_port_register
[2025-Jul-01 17:53:53] [debug] [SeggerBackend] - ---just_select_access_port_register
[2025-Jul-01 17:53:53] [trace] [  JLink] - JLINK_CORESIGHT_ReadAPDPReg(AP reg 0x03)  
[2025-Jul-01 17:53:53] [trace] [  JLink] - Value=0x02880000
[2025-Jul-01 17:53:53] [trace] [  JLink] - - 0.267ms returns 0  
[2025-Jul-01 17:53:53] [trace] [  JLink] - JLINK_HasError()  
[2025-Jul-01 17:53:53] [debug] [SeggerBackend] - read_access_port_register
[2025-Jul-01 17:53:53] [debug] [SeggerBackend] - ---just_read_access_port_register
[2025-Jul-01 17:53:53] [debug] [SeggerBackend] - ---just_select_access_port_register
[2025-Jul-01 17:53:53] [debug] [SeggerBackend] - Select AP 1, DP Bank 0, AP Bank 0
[2025-Jul-01 17:53:53] [trace] [  JLink] - JLINK_CORESIGHT_WriteAPDPReg(DP reg 0x02, 0x01000000)  
[2025-Jul-01 17:53:53] [trace] [  JLink] - - 0.232ms returns 0  
[2025-Jul-01 17:53:53] [trace] [  JLink] - JLINK_HasError()  
[2025-Jul-01 17:53:53] [trace] [  JLink] - JLINK_CORESIGHT_ReadAPDPReg(AP reg 0x03)  
[2025-Jul-01 17:53:53] [trace] [  JLink] - Value=0x00000001
[2025-Jul-01 17:53:53] [trace] [  JLink] - - 0.274ms returns 0  
[2025-Jul-01 17:53:53] [trace] [  JLink] - JLINK_HasError()  
[2025-Jul-01 17:53:53] [debug] [SeggerBackend] - read_access_port_register
[2025-Jul-01 17:53:53] [debug] [SeggerBackend] - ---just_read_access_port_register
[2025-Jul-01 17:53:53] [debug] [SeggerBackend] - ---just_select_access_port_register
[2025-Jul-01 17:53:53] [trace] [  JLink] - JLINK_CORESIGHT_ReadAPDPReg(AP reg 0x03)  
[2025-Jul-01 17:53:53] [trace] [  JLink] - Value=0x00000001
[2025-Jul-01 17:53:53] [trace] [  JLink] - - 0.288ms returns 0  
[2025-Jul-01 17:53:53] [trace] [  JLink] - JLINK_HasError()  
[2025-Jul-01 17:53:53] [debug] [SeggerBackend] - read_access_port_register
[2025-Jul-01 17:53:53] [debug] [SeggerBackend] - ---just_read_access_port_register
[2025-Jul-01 17:53:53] [debug] [SeggerBackend] - ---just_select_access_port_register
[2025-Jul-01 17:53:53] [trace] [  JLink] - JLINK_CORESIGHT_ReadAPDPReg(AP reg 0x03)  
[2025-Jul-01 17:53:53] [trace] [  JLink] - Value=0x00000001
[2025-Jul-01 17:53:53] [trace] [  JLink] - - 0.306ms returns 0  
[2025-Jul-01 17:53:53] [trace] [  JLink] - JLINK_HasError()  
[2025-Jul-01 17:53:53] [debug] [SeggerBackend] - read_access_port_register
[2025-Jul-01 17:53:53] [debug] [SeggerBackend] - ---just_read_access_port_register
[2025-Jul-01 17:53:53] [debug] [SeggerBackend] - ---just_select_access_port_register
[2025-Jul-01 17:53:53] [trace] [  JLink] - JLINK_CORESIGHT_ReadAPDPReg(AP reg 0x03)  
[2025-Jul-01 17:53:53] [trace] [  JLink] - Value=0x00000001
[2025-Jul-01 17:53:53] [trace] [  JLink] - - 0.341ms returns 0  
[2025-Jul-01 17:53:53] [trace] [  JLink] - JLINK_HasError()  
[2025-Jul-01 17:53:53] [ info] [  nRF52] - Protection status read as NONE
[2025-Jul-01 17:53:53] [debug] [SeggerBackend] - read_u32
[2025-Jul-01 17:53:53] [debug] [SeggerBackend] - ---just_connect_to_device
[2025-Jul-01 17:53:53] [debug] [SeggerBackend] - is_connected_to_device
[2025-Jul-01 17:53:53] [trace] [  JLink] - JLINK_IsConnected()  
[2025-Jul-01 17:53:53] [trace] [  JLink] - - 0.010ms returns TRUE  
[2025-Jul-01 17:53:53] [trace] [  JLink] - JLINK_HasError()  
[2025-Jul-01 17:53:53] [debug] [SeggerBackend] - ---just_read_u32
[2025-Jul-01 17:53:53] [debug] [SeggerBackend] - ---just_invalidate_cache
[2025-Jul-01 17:53:53] [trace] [  JLink] - JLINK_ExecCommand("InvalidateCache", ...).   
[2025-Jul-01 17:53:53] [trace] [  JLink] - - 0.010ms returns 0x00  
[2025-Jul-01 17:53:53] [trace] [  JLink] - JLINK_HasError()  
[2025-Jul-01 17:53:53] [trace] [  JLink] - JLINK_ReadMemU32(0x10000130, 0x1 Items)  
[2025-Jul-01 17:53:53] [trace] [  JLink] - CPU_ReadMem(4 bytes @ 0x10000130)
[2025-Jul-01 17:53:53] [trace] [  JLink] - Data:  06 00 00 00
[2025-Jul-01 17:53:53] [trace] [  JLink] - - 0.461ms returns 1 (0x1)  
[2025-Jul-01 17:53:53] [trace] [  JLink] - JLINK_HasError()  
[2025-Jul-01 17:53:53] [debug] [SeggerBackend] - read_u32
[2025-Jul-01 17:53:53] [debug] [SeggerBackend] - ---just_connect_to_device
[2025-Jul-01 17:53:53] [debug] [SeggerBackend] - is_connected_to_device
[2025-Jul-01 17:53:53] [debug] [SeggerBackend] - ---just_read_u32
[2025-Jul-01 17:53:53] [debug] [SeggerBackend] - ---just_invalidate_cache
[2025-Jul-01 17:53:53] [trace] [  JLink] - JLINK_ExecCommand("InvalidateCache", ...).   
[2025-Jul-01 17:53:53] [trace] [  JLink] - - 0.003ms returns 0x00  
[2025-Jul-01 17:53:53] [trace] [  JLink] - JLINK_HasError()  
[2025-Jul-01 17:53:53] [trace] [  JLink] - JLINK_ReadMemU32(0x10000134, 0x1 Items)  
[2025-Jul-01 17:53:53] [trace] [  JLink] - CPU_ReadMem(4 bytes @ 0x10000134)
[2025-Jul-01 17:53:53] [trace] [  JLink] - Data:  07 00 00 00
[2025-Jul-01 17:53:53] [trace] [  JLink] - - 0.433ms returns 1 (0x1)  
[2025-Jul-01 17:53:53] [trace] [  JLink] - JLINK_HasError()  
[2025-Jul-01 17:53:53] [debug] [  nRF52] - Just_decode_device_version
[2025-Jul-01 17:53:53] [debug] [SeggerBackend] - read_u32
[2025-Jul-01 17:53:53] [debug] [SeggerBackend] - ---just_connect_to_device
[2025-Jul-01 17:53:53] [debug] [SeggerBackend] - is_connected_to_device
[2025-Jul-01 17:53:53] [debug] [SeggerBackend] - ---just_read_u32
[2025-Jul-01 17:53:53] [debug] [SeggerBackend] - ---just_invalidate_cache
[2025-Jul-01 17:53:53] [trace] [  JLink] - JLINK_ExecCommand("InvalidateCache", ...).   
[2025-Jul-01 17:53:53] [trace] [  JLink] - - 0.003ms returns 0x00  
[2025-Jul-01 17:53:53] [trace] [  JLink] - JLINK_HasError()  
[2025-Jul-01 17:53:53] [trace] [  JLink] - JLINK_ReadMemU32(0x10000110, 0x1 Items)  
[2025-Jul-01 17:53:53] [trace] [  JLink] - CPU_ReadMem(4 bytes @ 0x10000110)
[2025-Jul-01 17:53:53] [trace] [  JLink] - Data:  00 02 00 00
[2025-Jul-01 17:53:53] [trace] [  JLink] - - 0.429ms returns 1 (0x1)  
[2025-Jul-01 17:53:53] [trace] [  JLink] - JLINK_HasError()  
[2025-Jul-01 17:53:53] [debug] [  nRF52] - Device identified as NRF52832_xxAA_REV3
[2025-Jul-01 17:53:53] [debug] [  nRF52] - Read memory description from family DLL: "Flash" [0x00000000-0x00080000] 128 pages (128x4kB) static ID0
[2025-Jul-01 17:53:53] [debug] [  nRF52] - Read memory description from family DLL: "Code RAM" [0x00800000-0x00810000] 16 pages (16x4kB) static ID8388608
[2025-Jul-01 17:53:53] [debug] [  nRF52] - Read memory description from family DLL: "FICR" [0x10000000-0x10001000] 1 pages (1x4kB) static ID268435456
[2025-Jul-01 17:53:53] [debug] [  nRF52] - Read memory description from family DLL: "UICR" [0x10001000-0x10002000] 1 pages (1x4kB) static ID268439552
[2025-Jul-01 17:53:53] [debug] [  nRF52] - Read memory description from family DLL: "RAM" [0x20000000-0x20010000] 16 pages (16x4kB) static ID536870912
[2025-Jul-01 17:53:53] [trace] [  JLink] - - 0.121ms   
[2025-Jul-01 17:53:53] [trace] [ Worker] - Command read_memory_descriptors executed for 11 milliseconds with result 0
[2025-Jul-01 17:53:53] [debug] [  nRF52] - read_memory_descriptors
[2025-Jul-01 17:53:53] [debug] [SeggerBackend] - is_connected_to_emu
[2025-Jul-01 17:53:53] [trace] [  JLink] - JLINK_IsOpen()  
[2025-Jul-01 17:53:53] [trace] [  JLink] - - 0.014ms returns 0x01  
[2025-Jul-01 17:53:53] [trace] [  JLink] - JLINK_HasError()  
[2025-Jul-01 17:53:53] [trace] [  JLink] - JLINK_Lock()  
[2025-Jul-01 17:53:53] [debug] [  nRF52] - Just_read_memory_descriptors
[2025-Jul-01 17:53:53] [debug] [  nRF52] - Just_readback_status
[2025-Jul-01 17:53:53] [debug] [  nRF52] - Just_is_ctrl_ap_available
[2025-Jul-01 17:53:53] [debug] [SeggerBackend] - read_access_port_register
[2025-Jul-01 17:53:53] [debug] [SeggerBackend] - ---just_read_access_port_register
[2025-Jul-01 17:53:53] [debug] [SeggerBackend] - ---just_is_debug_region_powered
[2025-Jul-01 17:53:53] [debug] [SeggerBackend] - ---just_read_debug_port_register
[2025-Jul-01 17:53:53] [debug] [SeggerBackend] - ---just_select_debug_port_register
[2025-Jul-01 17:53:53] [debug] [SeggerBackend] - Select AP 255, DP Bank 0, AP Bank 255
[2025-Jul-01 17:53:53] [trace] [  JLink] - JLINK_CORESIGHT_WriteAPDPReg(DP reg 0x02, 0x00000000)  
[2025-Jul-01 17:53:53] [trace] [  JLink] - - 0.415ms returns 0  
[2025-Jul-01 17:53:53] [trace] [  JLink] - JLINK_HasError()  
[2025-Jul-01 17:53:53] [trace] [  JLink] - JLINK_CORESIGHT_ReadAPDPReg(DP reg 0x01)  
[2025-Jul-01 17:53:53] [trace] [  JLink] - Value=0xF0000040
[2025-Jul-01 17:53:53] [trace] [  JLink] - - 0.452ms returns 0  
[2025-Jul-01 17:53:53] [trace] [  JLink] - JLINK_HasError()  
[2025-Jul-01 17:53:53] [debug] [SeggerBackend] - ---just_select_access_port_register
[2025-Jul-01 17:53:53] [debug] [SeggerBackend] - Select AP 1, DP Bank 0, AP Bank 15
[2025-Jul-01 17:53:53] [trace] [  JLink] - JLINK_CORESIGHT_WriteAPDPReg(DP reg 0x02, 0x010000F0)  
[2025-Jul-01 17:53:53] [trace] [ Client] - Command read_memory_descriptors executed for 15 milliseconds with result 0
[2025-Jul-01 17:53:53] [debug] [ Client] - read_page_sizes
[2025-Jul-01 17:53:53] [trace] [  JLink] - - 0.345ms returns 0  
[2025-Jul-01 17:53:53] [trace] [  JLink] - JLINK_HasError()  
[2025-Jul-01 17:53:53] [trace] [  JLink] - JLINK_CORESIGHT_ReadAPDPReg(AP reg 0x03)  
[2025-Jul-01 17:53:53] [trace] [  JLink] - Value=0x02880000
[2025-Jul-01 17:53:53] [trace] [  JLink] - - 0.321ms returns 0  
[2025-Jul-01 17:53:53] [trace] [  JLink] - JLINK_HasError()  
[2025-Jul-01 17:53:53] [debug] [SeggerBackend] - read_access_port_register
[2025-Jul-01 17:53:53] [debug] [SeggerBackend] - ---just_read_access_port_register
[2025-Jul-01 17:53:53] [debug] [SeggerBackend] - ---just_select_access_port_register
[2025-Jul-01 17:53:53] [trace] [  JLink] - JLINK_CORESIGHT_ReadAPDPReg(AP reg 0x03)  
[2025-Jul-01 17:53:53] [trace] [  JLink] - Value=0x02880000
[2025-Jul-01 17:53:53] [trace] [  JLink] - - 0.270ms returns 0  
[2025-Jul-01 17:53:53] [trace] [  JLink] - JLINK_HasError()  
[2025-Jul-01 17:53:53] [debug] [SeggerBackend] - read_access_port_register
[2025-Jul-01 17:53:53] [debug] [SeggerBackend] - ---just_read_access_port_register
[2025-Jul-01 17:53:53] [debug] [SeggerBackend] - ---just_select_access_port_register
[2025-Jul-01 17:53:53] [trace] [  JLink] - JLINK_CORESIGHT_ReadAPDPReg(AP reg 0x03)  
[2025-Jul-01 17:53:53] [trace] [  JLink] - Value=0x02880000
[2025-Jul-01 17:53:53] [trace] [  JLink] - - 0.263ms returns 0  
[2025-Jul-01 17:53:53] [trace] [  JLink] - JLINK_HasError()  
[2025-Jul-01 17:53:53] [debug] [SeggerBackend] - read_access_port_register
[2025-Jul-01 17:53:53] [debug] [SeggerBackend] - ---just_read_access_port_register
[2025-Jul-01 17:53:53] [debug] [SeggerBackend] - ---just_select_access_port_register
[2025-Jul-01 17:53:53] [trace] [  JLink] - JLINK_CORESIGHT_ReadAPDPReg(AP reg 0x03)  
[2025-Jul-01 17:53:53] [trace] [  JLink] - Value=0x02880000
[2025-Jul-01 17:53:53] [trace] [  JLink] - - 0.259ms returns 0  
[2025-Jul-01 17:53:53] [trace] [  JLink] - JLINK_HasError()  
[2025-Jul-01 17:53:53] [debug] [SeggerBackend] - read_access_port_register
[2025-Jul-01 17:53:53] [debug] [SeggerBackend] - ---just_read_access_port_register
[2025-Jul-01 17:53:53] [debug] [SeggerBackend] - ---just_select_access_port_register
[2025-Jul-01 17:53:53] [debug] [SeggerBackend] - Select AP 1, DP Bank 0, AP Bank 0
[2025-Jul-01 17:53:53] [trace] [  JLink] - JLINK_CORESIGHT_WriteAPDPReg(DP reg 0x02, 0x01000000)  
[2025-Jul-01 17:53:53] [trace] [  JLink] - - 0.228ms returns 0  
[2025-Jul-01 17:53:53] [trace] [  JLink] - JLINK_HasError()  
[2025-Jul-01 17:53:53] [trace] [  JLink] - JLINK_CORESIGHT_ReadAPDPReg(AP reg 0x03)  
[2025-Jul-01 17:53:53] [trace] [  JLink] - Value=0x00000001
[2025-Jul-01 17:53:53] [trace] [  JLink] - - 0.300ms returns 0  
[2025-Jul-01 17:53:53] [trace] [  JLink] - JLINK_HasError()  
[2025-Jul-01 17:53:53] [debug] [SeggerBackend] - read_access_port_register
[2025-Jul-01 17:53:53] [debug] [SeggerBackend] - ---just_read_access_port_register
